Freq.	V(n002)
1.00000000000000e+00	9.99960523140879e-01,-6.28293726675839e-03
1.02329299228075e+00	9.99958662730735e-01,-6.42927371443295e-03
1.04712854805090e+00	9.99956714649581e-01,-6.57901792041848e-03
1.07151930523761e+00	9.99954674766327e-01,-6.73224920042884e-03
1.09647819614318e+00	9.99952538755256e-01,-6.88904871330380e-03
1.12201845430196e+00	9.99950302086866e-01,-7.04949950362817e-03
1.14815362149688e+00	9.99947960018266e-01,-7.21368654532136e-03
1.17489755493953e+00	9.99945507583133e-01,-7.38169678621823e-03
1.20226443461741e+00	9.99942939581186e-01,-7.55361919366278e-03
1.23026877081238e+00	9.99940250567173e-01,-7.72954480113628e-03
1.25892541179417e+00	9.99937434839334e-01,-7.90956675594210e-03
1.28824955169313e+00	9.99934486427327e-01,-8.09378036796964e-03
1.31825673855641e+00	9.99931399079579e-01,-8.28228315956035e-03
1.34896288259165e+00	9.99928166250047e-01,-8.47517491649895e-03
1.38038426460288e+00	9.99924781084358e-01,-8.67255774015366e-03
1.41253754462275e+00	9.99921236405292e-01,-8.87453610078922e-03
1.44543977074593e+00	9.99917524697583e-01,-9.08121689207723e-03
1.47910838816821e+00	9.99913638092014e-01,-9.29270948682838e-03
1.51356124843621e+00	9.99909568348751e-01,-9.50912579397173e-03
1.54881661891248e+00	9.99905306839904e-01,-9.73058031680632e-03
1.58489319246111e+00	9.99900844531264e-01,-9.95719021255091e-03
1.62181009735893e+00	9.99896171963185e-01,-1.01890753532179e-02
1.65958690743756e+00	9.99891279230563e-01,-1.04263583878378e-02
1.69824365246174e+00	9.99886155961876e-01,-1.06691648060606e-02
1.73780082874937e+00	9.99880791297246e-01,-1.09176230031615e-02
1.77827941003892e+00	9.99875173865460e-01,-1.11718643464777e-02
1.81970085860998e+00	9.99869291759921e-01,-1.14320232433041e-02
1.86208713666287e+00	9.99863132513463e-01,-1.16982372102747e-02
1.90546071796325e+00	9.99856683071994e-01,-1.19706469442590e-02
1.94984459975804e+00	9.99849929766888e-01,-1.22493963947998e-02
1.99526231496888e+00	9.99842858286095e-01,-1.25346328381214e-02
2.04173794466953e+00	9.99835453643888e-01,-1.28265069527366e-02
2.08929613085404e+00	9.99827700149194e-01,-1.31251728966801e-02
2.13796208950223e+00	9.99819581372439e-01,-1.34307883863968e-02
2.18776162394955e+00	9.99811080110841e-01,-1.37435147773141e-02
2.23872113856834e+00	9.99802178352076e-01,-1.40635171461253e-02
2.29086765276777e+00	9.99792857236238e-01,-1.43909643748124e-02
2.34422881531992e+00	9.99783097016023e-01,-1.47260292364372e-02
2.39883291901949e+00	9.99772877015045e-01,-1.50688884827269e-02
2.45470891568503e+00	9.99762175584202e-01,-1.54197229334825e-02
2.51188643150958e+00	9.99750970056001e-01,-1.57787175678371e-02
2.57039578276886e+00	9.99739236696747e-01,-1.61460616173896e-02
2.63026799189538e+00	9.99726950656491e-01,-1.65219486612404e-02
2.69153480392691e+00	9.99714085916648e-01,-1.69065767229548e-02
2.75422870333816e+00	9.99700615235157e-01,-1.73001483694772e-02
2.81838293126445e+00	9.99686510089089e-01,-1.77028708120212e-02
2.88403150312660e+00	9.99671740614569e-01,-1.81149560089575e-02
2.95120922666638e+00	9.99656275543901e-01,-1.85366207707208e-02
3.01995172040201e+00	9.99640082139749e-01,-1.89680868667564e-02
3.09029543251359e+00	9.99623126126266e-01,-1.94095811345256e-02
3.16227766016837e+00	9.99605371616997e-01,-1.98613355905859e-02
3.23593656929628e+00	9.99586781039442e-01,-2.03235875437625e-02
3.31131121482591e+00	9.99567315056087e-01,-2.07965797104243e-02
3.38844156139202e+00	9.99546932481785e-01,-2.12805603318748e-02
3.46736850452531e+00	9.99525590197277e-01,-2.17757832938687e-02
3.54813389233575e+00	9.99503243058708e-01,-2.22825082482574e-02
3.63078054770101e+00	9.99479843802933e-01,-2.28010007367702e-02
3.71535229097172e+00	9.99455342948440e-01,-2.33315323169281e-02
3.80189396320560e+00	9.99429688691676e-01,-2.38743806900889e-02
3.89045144994280e+00	9.99402826798566e-01,-2.44298298316152e-02
3.98107170553496e+00	9.99374700491018e-01,-2.49981701231551e-02
4.07380277804112e+00	9.99345250328181e-01,-2.55796984870177e-02
4.16869383470335e+00	9.99314414082211e-01,-2.61747185226246e-02
4.26579518801592e+00	9.99282126608311e-01,-2.67835406450101e-02
4.36515832240165e+00	9.99248319708772e-01,-2.74064822253374e-02
4.46683592150962e+00	9.99212921990759e-01,-2.80438677333937e-02
4.57088189614874e+00	9.99175858717549e-01,-2.86960288820177e-02
4.67735141287197e+00	9.99137051652934e-01,-2.93633047734071e-02
4.78630092322637e+00	9.99096418898488e-01,-3.00460420472452e-02
4.89778819368445e+00	9.99053874723367e-01,-3.07445950305767e-02
5.01187233627271e+00	9.99009329386323e-01,-3.14593258893549e-02
5.12861383991364e+00	9.98962688949582e-01,-3.21906047815681e-02
5.24807460249771e+00	9.98913855084225e-01,-3.29388100118492e-02
5.37031796370252e+00	9.98862724866704e-01,-3.37043281874521e-02
5.49540873857623e+00	9.98809190566091e-01,-3.44875543754736e-02
5.62341325190348e+00	9.98753139421677e-01,-3.52888922611796e-02
5.75439937337156e+00	9.98694453410479e-01,-3.61087543072833e-02
5.88843655355588e+00	9.98633009004228e-01,-3.69475619140065e-02
6.02559586074356e+00	9.98568676915388e-01,-3.78057455797359e-02
6.16595001861481e+00	9.98501321831721e-01,-3.86837450620704e-02
6.30957344480192e+00	9.98430802138924e-01,-3.95820095390354e-02
6.45654229034654e+00	9.98356969630823e-01,-4.05009977702155e-02
6.60693448007594e+00	9.98279669206588e-01,-4.14411782575397e-02
6.76082975391980e+00	9.98198738554448e-01,-4.24030294054234e-02
6.91830970918935e+00	9.98114007821313e-01,-4.33870396799489e-02
7.07945784384136e+00	9.98025299267740e-01,-4.43937077667361e-02
7.24435960074988e+00	9.97932426907625e-01,-4.54235427271252e-02
7.41310241300916e+00	9.97835196132000e-01,-4.64770641522618e-02
7.58577575029182e+00	9.97733403316289e-01,-4.75548023146398e-02
7.76247116628690e+00	9.97626835410358e-01,-4.86572983166195e-02
7.94328234724279e+00	9.97515269510666e-01,-4.97851042354003e-02
8.12830516164097e+00	9.97398472413813e-01,-5.09387832638851e-02
8.31763771102669e+00	9.97276200150760e-01,-5.21189098468269e-02
8.51138038202374e+00	9.97148197500955e-01,-5.33260698116020e-02
8.70963589956078e+00	9.97014197485619e-01,-5.45608604929012e-02
8.91250938133743e+00	9.96873920839384e-01,-5.58238908505762e-02
9.12010839355907e+00	9.96727075459478e-01,-5.71157815798212e-02
9.33254300796988e+00	9.96573355831635e-01,-5.84371652128046e-02
9.54992586021433e+00	9.96412442431882e-01,-5.97886862108031e-02
9.77237220955808e+00	9.96244001103341e-01,-6.11710010458167e-02
9.99999999999997e+00	9.96067682407173e-01,-6.25847782705715e-02
1.02329299228075e+01	9.95883120946765e-01,-6.40306985757329e-02
1.04712854805090e+01	9.95689934664275e-01,-6.55094548330738e-02
1.07151930523760e+01	9.95487724108610e-01,-6.70217521232452e-02
1.09647819614318e+01	9.95276071673923e-01,-6.85683077467084e-02
1.12201845430196e+01	9.95054540807711e-01,-7.01498512162811e-02
1.14815362149688e+01	9.94822675187593e-01,-7.17671242296472e-02
1.17489755493953e+01	9.94579997865840e-01,-7.34208806200653e-02
1.20226443461741e+01	9.94326010380752e-01,-7.51118862833908e-02
1.23026877081238e+01	9.94060191833984e-01,-7.68409190794017e-02
1.25892541179416e+01	9.93781997932933e-01,-7.86087687052840e-02
1.28824955169313e+01	9.93490859997330e-01,-8.04162365389930e-02
1.31825673855640e+01	9.93186183929208e-01,-8.22641354500581e-02
1.34896288259165e+01	9.92867349145452e-01,-8.41532895752442e-02
1.38038426460288e+01	9.92533707472196e-01,-8.60845340563189e-02
1.41253754462275e+01	9.92184582000358e-01,-8.80587147370041e-02
1.44543977074592e+01	9.91819265901710e-01,-9.00766878160105e-02
1.47910838816820e+01	9.91437021204918e-01,-9.21393194528662e-02
1.51356124843620e+01	9.91037077531097e-01,-9.42474853230567e-02
1.54881661891248e+01	9.90618630788531e-01,-9.64020701187841e-02
1.58489319246111e+01	9.90180841826309e-01,-9.86039669914494e-02
1.62181009735892e+01	9.89722835046772e-01,-1.00854076931733e-01
1.65958690743755e+01	9.89243696976823e-01,-1.03153308082924e-01
1.69824365246174e+01	9.88742474798306e-01,-1.05502574982922e-01
1.73780082874937e+01	9.88218174837874e-01,-1.07902797730063e-01
1.77827941003892e+01	9.87669761016954e-01,-1.10354901067722e-01
1.81970085860998e+01	9.87096153262685e-01,-1.12859813382333e-01
1.86208713666286e+01	9.86496225880948e-01,-1.15418465609248e-01
1.90546071796324e+01	9.85868805892925e-01,-1.18031790040579e-01
1.94984459975804e+01	9.85212671336917e-01,-1.20700719028896e-01
1.99526231496887e+01	9.84526549537567e-01,-1.23426183580388e-01
2.04173794466952e+01	9.83809115344958e-01,-1.26209111830837e-01
2.08929613085403e+01	9.83058989346568e-01,-1.29050427397479e-01
2.13796208950222e+01	9.82274736055475e-01,-1.31951047599561e-01
2.18776162394954e+01	9.81454862078774e-01,-1.34911881540170e-01
2.23872113856833e+01	9.80597814270700e-01,-1.37933828041657e-01
2.29086765276776e+01	9.79701977875603e-01,-1.41017773426737e-01
2.34422881531991e+01	9.78765674666543e-01,-1.44164589137174e-01
2.39883291901948e+01	9.77787161086053e-01,-1.47375129181726e-01
2.45470891568502e+01	9.76764626396349e-01,-1.50650227404904e-01
2.51188643150957e+01	9.75696190847139e-01,-1.53990694567959e-01
2.57039578276885e+01	9.74579903870063e-01,-1.57397315233400e-01
2.63026799189537e+01	9.73413742309792e-01,-1.60870844444348e-01
2.69153480392690e+01	9.72195608702818e-01,-1.64412004190009e-01
2.75422870333815e+01	9.70923329616072e-01,-1.68021479648621e-01
2.81838293126444e+01	9.69594654058711e-01,-1.71699915199397e-01
2.88403150312659e+01	9.68207251981583e-01,-1.75447910195176e-01
2.95120922666637e+01	9.66758712880268e-01,-1.79266014487843e-01
3.01995172040200e+01	9.65246544518882e-01,-1.83154723698954e-01
3.09029543251358e+01	9.63668171793331e-01,-1.87114474228560e-01
3.16227766016837e+01	9.62020935754163e-01,-1.91145637995869e-01
3.23593656929627e+01	9.60302092810730e-01,-1.95248516906178e-01
3.31131121482590e+01	9.58508814139973e-01,-1.99423337039463e-01
3.38844156139201e+01	9.56638185324795e-01,-2.03670242557125e-01
3.46736850452530e+01	9.54687206248649e-01,-2.07989289324711e-01
3.54813389233574e+01	9.52652791274689e-01,-2.12380438249932e-01
3.63078054770100e+01	9.50531769739513e-01,-2.16843548337002e-01
3.71535229097171e+01	9.48320886793247e-01,-2.21378369460335e-01
3.80189396320559e+01	9.46016804619349e-01,-2.25984534862776e-01
3.89045144994279e+01	9.43616104069173e-01,-2.30661553386099e-01
3.98107170553495e+01	9.41115286747818e-01,-2.35408801444191e-01
4.07380277804111e+01	9.38510777589246e-01,-2.40225514752440e-01
4.16869383470333e+01	9.35798927959937e-01,-2.45110779830201e-01
4.26579518801591e+01	9.32976019331439e-01,-2.50063525296875e-01
4.36515832240164e+01	9.30038267563091e-01,-2.55082512986162e-01
4.46683592150961e+01	9.26981827836805e-01,-2.60166328907376e-01
4.57088189614873e+01	9.23802800286141e-01,-2.65313374087371e-01
4.67735141287196e+01	9.20497236361833e-01,-2.70521855331618e-01
4.78630092322636e+01	9.17061145975498e-01,-2.75789775948283e-01
4.89778819368444e+01	9.13490505462312e-01,-2.81114926484742e-01
5.01187233627270e+01	9.09781266401955e-01,-2.86494875531849e-01
5.12861383991362e+01	9.05929365335079e-01,-2.91926960657388e-01
5.24807460249770e+01	9.01930734409769e-01,-2.97408279536437e-01
5.37031796370250e+01	8.97781312989051e-01,-3.02935681352836e-01
5.49540873857622e+01	8.93477060246161e-01,-3.08505758552477e-01
5.62341325190346e+01	8.89013968769238e-01,-3.14114839035672e-01
5.75439937337154e+01	8.84388079190984e-01,-3.19758978882322e-01
5.88843655355586e+01	8.79595495851879e-01,-3.25433955709859e-01
6.02559586074355e+01	8.74632403497479e-01,-3.31135262769917e-01
6.16595001861479e+01	8.69495085001279e-01,-3.36858103895242e-01
6.30957344480190e+01	8.64179940094450e-01,-3.42597389413292e-01
6.45654229034652e+01	8.58683505072602e-01,-3.48347733147257e-01
6.60693448007593e+01	8.53002473437408e-01,-3.54103450628587e-01
6.76082975391978e+01	8.47133717417665e-01,-3.59858558647411e-01
6.91830970918933e+01	8.41074310300129e-01,-3.65606776268290e-01
7.07945784384134e+01	8.34821549485284e-01,-3.71341527438386e-01
7.24435960074986e+01	8.28372980167389e-01,-3.77055945313142e-01
7.41310241300914e+01	8.21726419521578e-01,-3.82742878420782e-01
7.58577575029180e+01	8.14879981263912e-01,-3.88394898781174e-01
7.76247116628688e+01	8.07832100433088e-01,-3.94004312086750e-01
7.94328234724277e+01	8.00581558225438e-01,-3.99563170042946e-01
8.12830516164095e+01	7.93127506698013e-01,-4.05063284953112e-01
8.31763771102667e+01	7.85469493138419e-01,-4.10496246617791e-01
8.51138038202372e+01	7.77607483884851e-01,-4.15853441600670e-01
8.70963589956076e+01	7.69541887365978e-01,-4.21126074893477e-01
8.91250938133741e+01	7.61273576118187e-01,-4.26305193989487e-01
9.12010839355905e+01	7.52803907527788e-01,-4.31381715350433e-01
9.33254300796986e+01	7.44134743038324e-01,-4.36346453224512e-01
9.54992586021431e+01	7.35268465558702e-01,-4.41190150744159e-01
9.77237220955805e+01	7.26207994806692e-01,-4.45903513201607e-01
9.99999999999995e+01	7.16956800324900e-01,-4.50477243368388e-01
1.02329299228075e+02	7.07518911912815e-01,-4.54902078692240e-01
1.04712854805089e+02	6.97898927229312e-01,-4.59168830171961e-01
1.07151930523760e+02	6.88102016335158e-01,-4.63268422678093e-01
1.09647819614318e+02	6.78133922964774e-01,-4.67191936455650e-01
1.12201845430196e+02	6.68000962340773e-01,-4.70930649514952e-01
1.14815362149688e+02	6.57710015373427e-01,-4.74476080588804e-01
1.17489755493952e+02	6.47268519120219e-01,-4.77820032309381e-01
1.20226443461741e+02	6.36684453417442e-01,-4.80954634236926e-01
1.23026877081237e+02	6.25966323636216e-01,-4.83872385355453e-01
1.25892541179416e+02	6.15123139558604e-01,-4.86566195638548e-01
1.28824955169313e+02	6.04164390415178e-01,-4.89029426281726e-01
1.31825673855640e+02	5.93100016172602e-01,-4.91255928196965e-01
1.34896288259165e+02	5.81940375207799e-01,-4.93240078370366e-01
1.38038426460288e+02	5.70696208553123e-01,-4.94976813695564e-01
1.41253754462275e+02	5.59378600943747e-01,-4.96461661913549e-01
1.44543977074592e+02	5.47998938943320e-01,-4.97690769313954e-01
1.47910838816820e+02	5.36568866465781e-01,-4.98660924883240e-01
1.51356124843620e+02	5.25100238049290e-01,-4.99369580621276e-01
1.54881661891247e+02	5.13605070271602e-01,-4.99814867788969e-01
1.58489319246110e+02	5.02095491724175e-01,-4.99995608895152e-01
1.62181009735892e+02	4.90583691984176e-01,-4.99911325280145e-01
1.65958690743755e+02	4.79081870038947e-01,-4.99562240205295e-01
1.69824365246173e+02	4.67602182625842e-01,-4.98949277411433e-01
1.73780082874936e+02	4.56156692951712e-01,-4.98074055163556e-01
1.77827941003891e+02	4.44757320250426e-01,-4.96938875853043e-01
1.81970085860997e+02	4.33415790623998e-01,-4.95546711281361e-01
1.86208713666286e+02	4.22143589593289e-01,-4.93901183799535e-01
1.90546071796323e+02	4.10951916758466e-01,-4.92006543524584e-01
1.94984459975803e+02	3.99851642937897e-01,-4.89867641897035e-01
1.99526231496887e+02	3.88853270117725e-01,-4.87489901881543e-01
2.04173794466952e+02	3.77966894503787e-01,-4.84879285145231e-01
2.08929613085403e+02	3.67202172923687e-01,-4.82042256574888e-01
2.13796208950222e+02	3.56568292780671e-01,-4.78985746514600e-01
2.18776162394954e+02	3.46073945713322e-01,-4.75717111119344e-01
2.23872113856832e+02	3.35727305067101e-01,-4.72244091227707e-01
2.29086765276776e+02	3.25536007236115e-01,-4.68574770158278e-01
2.34422881531991e+02	3.15507136887197e-01,-4.64717530829686e-01
2.39883291901947e+02	3.05647216034108e-01,-4.60681012594081e-01
2.45470891568501e+02	2.95962196888186e-01,-4.56474068158646e-01
2.51188643150956e+02	2.86457458373512e-01,-4.52105720949978e-01
2.57039578276885e+02	2.77137806160335e-01,-4.47585123252518e-01
2.63026799189536e+02	2.68007476040147e-01,-4.42921515425405e-01
2.69153480392690e+02	2.59070140440015e-01,-4.38124186472746e-01
2.75422870333815e+02	2.50328917852318e-01,-4.33202436211069e-01
2.81838293126443e+02	2.41786384939317e-01,-4.28165539245388e-01
2.88403150312659e+02	2.33444591059547e-01,-4.23022710932390e-01
2.95120922666637e+02	2.25305074955045e-01,-4.17783075476433e-01
3.01995172040200e+02	2.17368883334441e-01,-4.12455636271805e-01
3.09029543251357e+02	2.09636591086798e-01,-4.07049248573566e-01
3.16227766016836e+02	2.02108322864380e-01,-4.01572594549638e-01
3.23593656929626e+02	1.94783775778909e-01,-3.96034160738970e-01
3.31131121482589e+02	1.87662242964945e-01,-3.90442217914906e-01
3.38844156139200e+02	1.80742637775413e-01,-3.84804803329427e-01
3.46736850452529e+02	1.74023518387502e-01,-3.79129705292973e-01
3.54813389233573e+02	1.67503112611948e-01,-3.73424450026049e-01
3.63078054770099e+02	1.61179342714530e-01,-3.67696290702860e-01
3.71535229097170e+02	1.55049850075224e-01,-3.61952198593785e-01
3.80189396320558e+02	1.49112019527495e-01,-3.56198856202441e-01
3.89045144994278e+02	1.43363003237372e-01,-3.50442652284412e-01
3.98107170553494e+02	1.37799743998986e-01,-3.44689678628183e-01
4.07380277804110e+02	1.32418997839937e-01,-3.38945728474344e-01
4.16869383470332e+02	1.27217355845976e-01,-3.33216296446519e-01
4.26579518801589e+02	1.22191265129918e-01,-3.27506579866525e-01
4.36515832240163e+02	1.17337048884272e-01,-3.21821481326841e-01
4.46683592150960e+02	1.12650925470723e-01,-3.16165612395328e-01
4.57088189614872e+02	1.08129026512251e-01,-3.10543298330143e-01
4.67735141287195e+02	1.03767413965262e-01,-3.04958583686742e-01
4.78630092322635e+02	9.95620961596230e-02,-2.99415238703585e-01
4.89778819368442e+02	9.55090428039816e-02,-2.93916766358520e-01
5.01187233627268e+02	9.16041989621089e-02,-2.88466409993641e-01
5.12861383991361e+02	8.78434980134255e-02,-2.83067161412607e-01
5.24807460249769e+02	8.42228736172328e-02,-2.77721769360791e-01
5.37031796370249e+02	8.07382707056371e-02,-2.72432748305156e-01
5.49540873857620e+02	7.73856555347330e-02,-2.67202387437299e-01
5.62341325190345e+02	7.41610248273608e-02,-2.62032759829599e-01
5.75439937337152e+02	7.10604140437606e-02,-2.56925731680752e-01
5.88843655355584e+02	6.80799048187499e-02,-2.51882971593198e-01
6.02559586074353e+02	6.52156316057404e-02,-2.46905959830873e-01
6.16595001861477e+02	6.24637875690303e-02,-2.41995997511449e-01
6.30957344480188e+02	5.98206297664344e-02,-2.37154215692620e-01
6.45654229034650e+02	5.72824836645003e-02,-2.32381584317102e-01
6.60693448007591e+02	5.48457470283627e-02,-2.27678920985812e-01
6.76082975391976e+02	5.25068932277638e-02,-2.23046899533107e-01
6.91830970918931e+02	5.02624739999654e-02,-2.18486058382150e-01
7.07945784384132e+02	4.81091217092395e-02,-2.13996808662197e-01
7.24435960074984e+02	4.60435511414007e-02,-2.09579442073143e-01
7.41310241300911e+02	4.40625608704611e-02,-2.05234138485774e-01
7.58577575029177e+02	4.21630342329883e-02,-2.00960973269081e-01
7.76247116628685e+02	4.03419399441642e-02,-1.96759924338534e-01
7.94328234724275e+02	3.85963323878875e-02,-1.92630878921556e-01
8.12830516164092e+02	3.69233516115820e-02,-1.88573640038446e-01
8.31763771102664e+02	3.53202230546651e-02,-1.84587932698846e-01
8.51138038202369e+02	3.37842570379324e-02,-1.80673409815411e-01
8.70963589956073e+02	3.23128480394237e-02,-1.76829657837719e-01
8.91250938133738e+02	3.09034737806795e-02,-1.73056202110662e-01
9.12010839355902e+02	2.95536941456779e-02,-1.69352511962538e-01
9.33254300796983e+02	2.82611499531673e-02,-1.65718005528946e-01
9.54992586021428e+02	2.70235616015969e-02,-1.62152054319276e-01
9.77237220955802e+02	2.58387276043827e-02,-1.58653987533151e-01
9.99999999999991e+02	2.47045230318581e-02,-1.55223096134649e-01
1.02329299228075e+03	2.36188978749236e-02,-1.51858636692476e-01
1.04712854805089e+03	2.25798753441517e-02,-1.48559834994504e-01
1.07151930523760e+03	2.15855501169084e-02,-1.45325889445270e-01
1.09647819614318e+03	2.06340865439282e-02,-1.42155974255132e-01
1.12201845430195e+03	1.97237168257214e-02,-1.39049242429796e-01
1.14815362149687e+03	1.88527391682025e-02,-1.36004828568909e-01
